spi-1: 
spi-1: 
spi-1: 00
spi-1: 03
spi-1: 00
spi-1: 11
spi-1: 00
spi-1: 7C
spi-1: 00
spi-1: 00
spi-1: 6F
spi-1: 00
spi-1: 72
spi-1: 00
spi-1: 6C
spi-1: 00
spi-1: 64
spi-1: 00
spi-1: 48
spi-1: 00
spi-1: 65
spi-1: 00
spi-1: 6C
spi-1: 00
spi-1: 6C
spi-1: 00
spi-1: 6F
spi-1: 00
spi-1: 57
spi-1: 00
spi-1: 6F
spi-1: 00
spi-1: 72
spi-1: 00
spi-1: 6C
spi-1: 00
spi-1: 64
spi-1: 00
spi-1: 48
spi-1: 00
spi-1: 65
spi-1: 00
spi-1: 6C
spi-1: 00
spi-1: 6C
spi-1: 00
spi-1: 6F
spi-1: 00
spi-1: 57
spi-1: 00
spi-1: 6F
spi-1: 00
spi-1: 72
spi-1: 00
spi-1: 6C
spi-1: 00
spi-1: 64
spi-1: 00
spi-1: 48
spi-1: 00
spi-1: 65
spi-1: 00
spi-1: 6C
spi-1: 00
spi-1: 6C
spi-1: 00
spi-1: 6F
spi-1: 00
spi-1: 57
spi-1: 00
spi-1: 6F
spi-1: 00
spi-1: 72
spi-1: 00
spi-1: 6C
spi-1: 00
spi-1: 64
spi-1: 00
spi-1: 48
spi-1: 00
spi-1: 65
spi-1: 00
spi-1: 6C
spi-1: 00
spi-1: 6C
spi-1: 00
spi-1: 6F
spi-1: 00
spi-1: 57
spi-1: 00
spi-1: 6F
spi-1: 00
spi-1: 72
spi-1: 00
spi-1: 6C
spi-1: 00
spi-1: 64
spi-1: 00
spi-1: 48
spi-1: 00
spi-1: 65
spi-1: 00
spi-1: 6C
spi-1: 00
spi-1: 6C
spi-1: 00
spi-1: 6F
spi-1: 00
spi-1: 57
spi-1: 00
spi-1: 6F
spi-1: 00
spi-1: 72
spi-1: 00
spi-1: 6C
spi-1: 00
spi-1: 64
spi-1: 00
spi-1: 48
spi-1: 00
spi-1: 65
spi-1: 00
spi-1: 6C
spi-1: 00
spi-1: 6C
spi-1: 00
spi-1: 6F
spi-1: 00
spi-1: 57
spi-1: 00
spi-1: 6F
spi-1: 00
spi-1: 72
spi-1: 00
spi-1: 6C
spi-1: 00
spi-1: 64
spi-1: 00
spi-1: 48
spi-1: 00
spi-1: 65
spi-1: 00
spi-1: 6C
spi-1: 00
spi-1: 6C
spi-1: 00
spi-1: 6F
spi-1: 00
spi-1: 57
spi-1: 00
spi-1: 6F
spi-1: 00
spi-1: 72
spi-1: 00
spi-1: 6C
spi-1: 00
spi-1: 64
spi-1: 00
spi-1: 48
spi-1: 00
spi-1: 65
spi-1: 00
spi-1: 6C
spi-1: 00
spi-1: 6C
spi-1: 00
spi-1: 6F
spi-1: 00
spi-1: 57
spi-1: 00
spi-1: 6F
spi-1: 00
spi-1: 72
spi-1: 00
spi-1: 6C
spi-1: 00
spi-1: 64
spi-1: 00
spi-1: 48
spi-1: 00
spi-1: 65
spi-1: 00
spi-1: 6C
spi-1: 00
spi-1: 6C
spi-1: 00
spi-1: 6F
spi-1: 00
spi-1: 57
spi-1: 00
spi-1: 6F
spi-1: 00
spi-1: 72
spi-1: 00
spi-1: 6C
spi-1: 00
spi-1: 64
spi-1: 00
spi-1: 48
spi-1: 00
spi-1: 65
spi-1: 00
spi-1: 6C
spi-1: 00
spi-1: 6C
spi-1: 00
spi-1: 6F
spi-1: 00
spi-1: 57
spi-1: 00
spi-1: 6F
spi-1: 00
spi-1: 72
spi-1: 00
spi-1: 6C
spi-1: 00
spi-1: 64
spi-1: 00
spi-1: 48
spi-1: 00
spi-1: 65
spi-1: 00
spi-1: 6C
spi-1: 00
spi-1: 6C
spi-1: 00
spi-1: 6F
spi-1: 00
spi-1: 57
spi-1: 00
spi-1: 6F
spi-1: 00
spi-1: 72
spi-1: 00
spi-1: 6C
spi-1: 00
spi-1: 64
spi-1: 00
spi-1: 48
spi-1: 00
spi-1: 65
spi-1: 00
spi-1: 6C
spi-1: 00
spi-1: 6C
spi-1: 00
spi-1: 6F
spi-1: 00
spi-1: 57
spi-1: 00
spi-1: 6F
spi-1: 00
spi-1: 72
spi-1: 00
spi-1: 6C
spi-1: 00
spi-1: 64
spi-1: 00
spi-1: 48
spi-1: 00
spi-1: 65
spi-1: 00
spi-1: 6C
spi-1: 00
spi-1: 6C
spi-1: 00
spi-1: 6F
spi-1: 00
spi-1: 57
spi-1: 00
spi-1: 6F
spi-1: 00
spi-1: 72
spi-1: 00
spi-1: 6C
spi-1: 00
spi-1: 64
spi-1: 00
spi-1: 48
spi-1: 00
spi-1: 65
spi-1: 00
spi-1: 6C
spi-1: 00
spi-1: 6C
spi-1: 00
spi-1: 6F
spi-1: 00
spi-1: 57
spi-1: 00
spi-1: 6F
spi-1: 00
spi-1: 72
spi-1: 00
spi-1: 6C
spi-1: 00
spi-1: 64
spi-1: 00
spi-1: 48
spi-1: 00
spi-1: 65
spi-1: 00
spi-1: 6C
spi-1: 00
spi-1: 6C
spi-1: 00
spi-1: 6F
spi-1: 00
spi-1: 57
spi-1: 00
spi-1: 6F
spi-1: 00
spi-1: 72
spi-1: 00
spi-1: 6C
spi-1: 00
spi-1: 64
spi-1: 00
spi-1: 48
spi-1: 00
spi-1: 65
spi-1: 00
spi-1: 6C
spi-1: 00
spi-1: 6C
spi-1: 00
spi-1: 6F
spi-1: 00
spi-1: 57
spi-1: 00
spi-1: 6F
spi-1: 00
spi-1: 72
spi-1: 00
spi-1: 6C
spi-1: 00
spi-1: 64
spi-1: 00
spi-1: 48
spi-1: 00
spi-1: 65
spi-1: 00
spi-1: 6C
spi-1: 00
spi-1: 6C
spi-1: 00
spi-1: 6F
spi-1: 00
spi-1: 57
spi-1: 00
spi-1: 6F
spi-1: 00
spi-1: 72
spi-1: 00
spi-1: 6C
spi-1: 00
spi-1: 64
spi-1: 00
spi-1: 48
spi-1: 00
spi-1: 65
spi-1: 00
spi-1: 6C
spi-1: 00
spi-1: 6C
spi-1: 00
spi-1: 6F
spi-1: 00
spi-1: 57
spi-1: 00
spi-1: 6F
spi-1: 00
spi-1: 72
spi-1: 00
spi-1: 6C
spi-1: 00
spi-1: 64
spi-1: 00
spi-1: 48
spi-1: 00
spi-1: 65
spi-1: 00
spi-1: 6C
spi-1: 00
spi-1: 6C
spi-1: 00
spi-1: 6F
spi-1: 00
spi-1: 57
spi-1: 00
spi-1: 6F
spi-1: 00
spi-1: 72
spi-1: 00
spi-1: 6C
spi-1: 00
spi-1: 64
spi-1: 00
spi-1: 48
spi-1: 00
spi-1: 65
spi-1: 00
spi-1: 6C
spi-1: 00
spi-1: 6C
spi-1: 00
spi-1: 6F
spi-1: 00
spi-1: 57
spi-1: 00
spi-1: 6F
spi-1: 00
spi-1: 72
spi-1: 00
spi-1: 6C
spi-1: 00
spi-1: 64
spi-1: 00
spi-1: 48
spi-1: 00
spi-1: 65
spi-1: 00
spi-1: 6C
spi-1: 00
spi-1: 6C
spi-1: 00
spi-1: 6F
spi-1: 00
spi-1: 57
spi-1: 00
spi-1: 6F
spi-1: 00
spi-1: 72
spi-1: 00
spi-1: 6C
spi-1: 00
spi-1: 64
spi-1: 00
spi-1: 48
spi-1: 00
spi-1: 65
spi-1: 00
spi-1: 6C
spi-1: 00
spi-1: 6C
spi-1: 00
spi-1: 6F
spi-1: 00
spi-1: 57
spi-1: 00
spi-1: 6F
spi-1: 00
spi-1: 72
spi-1: 00
spi-1: 6C
spi-1: 00
spi-1: 64
spi-1: 00
spi-1: 48
spi-1: 00
spi-1: 65
spi-1: 00
spi-1: 6C
spi-1: 00
spi-1: 6C
spi-1: 00
spi-1: 6F
spi-1: 00
spi-1: 57
spi-1: 00
spi-1: 6F
spi-1: 00
spi-1: 72
spi-1: 00
spi-1: 6C
spi-1: 00
spi-1: 64
spi-1: 00
spi-1: 48
spi-1: 00
spi-1: 65
spi-1: 00
spi-1: 6C
spi-1: 00
spi-1: 6C
spi-1: 00
spi-1: 6F
spi-1: 00
spi-1: 57
spi-1: 00
spi-1: 6F
spi-1: 00
spi-1: 72
spi-1: 00
spi-1: 6C
spi-1: 00
spi-1: 64
spi-1: 00
spi-1: 48
spi-1: 00
spi-1: 65
spi-1: 00
spi-1: 6C
spi-1: 00
spi-1: 6C
spi-1: 00
spi-1: 6F
spi-1: 00
spi-1: 57
spi-1: 00
spi-1: 6F
spi-1: 00
spi-1: 72
spi-1: 00
spi-1: 6C
spi-1: 00
spi-1: 64
spi-1: 00
spi-1: 48
spi-1: 00
spi-1: 65
spi-1: 00
spi-1: 00 00 00 00 6F 72 6C 64 48 65 6C 6C 6F 57 6F 72 6C 64 48 65 6C 6C 6F 57 6F 72 6C 64 48 65 6C 6C 6F 57 6F 72 6C 64 48 65 6C 6C 6F 57 6F 72 6C 64 48 65 6C 6C 6F 57 6F 72 6C 64 48 65 6C 6C 6F 57 6F 72 6C 64 48 65 6C 6C 6F 57 6F 72 6C 64 48 65 6C 6C 6F 57 6F 72 6C 64 48 65 6C 6C 6F 57 6F 72 6C 64 48 65 6C 6C 6F 57 6F 72 6C 64 48 65 6C 6C 6F 57 6F 72 6C 64 48 65 6C 6C 6F 57 6F 72 6C 64 48 65 6C 6C 6F 57 6F 72 6C 64 48 65 6C 6C 6F 57 6F 72 6C 64 48 65 6C 6C 6F 57 6F 72 6C 64 48 65 6C 6C 6F 57 6F 72 6C 64 48 65 6C 6C 6F 57 6F 72 6C 64 48 65 6C 6C 6F 57 6F 72 6C 64 48 65 6C 6C 6F 57 6F 72 6C 64 48 65 6C 6C 6F 57 6F 72 6C 64 48 65 6C 6C 6F 57 6F 72 6C 64 48 65 6C 6C 6F 57 6F 72 6C 64 48 65 6C 6C 6F 57 6F 72 6C 64 48 65 6C 6C 6F 57 6F 72 6C 64 48 65 6C 6C 6F 57 6F 72 6C 64 48 65
spi-1: 03 11 7C 00 00 00 00 00 00 00 00 00 00 00 00 00 00 00 00 00 00 00 00 00 00 00 00 00 00 00 00 00 00 00 00 00 00 00 00 00 00 00 00 00 00 00 00 00 00 00 00 00 00 00 00 00 00 00 00 00 00 00 00 00 00 00 00 00 00 00 00 00 00 00 00 00 00 00 00 00 00 00 00 00 00 00 00 00 00 00 00 00 00 00 00 00 00 00 00 00 00 00 00 00 00 00 00 00 00 00 00 00 00 00 00 00 00 00 00 00 00 00 00 00 00 00 00 00 00 00 00 00 00 00 00 00 00 00 00 00 00 00 00 00 00 00 00 00 00 00 00 00 00 00 00 00 00 00 00 00 00 00 00 00 00 00 00 00 00 00 00 00 00 00 00 00 00 00 00 00 00 00 00 00 00 00 00 00 00 00 00 00 00 00 00 00 00 00 00 00 00 00 00 00 00 00 00 00 00 00 00 00 00 00 00 00 00 00 00 00 00 00 00 00 00 00 00 00 00 00 00 00 00 00 00 00 00 00 00 00 00 00 00 00 00 00 00 00 00 00 00 00 00 00 00 00 00 00 00 00
spi-1: 00
spi-1: 03
spi-1: 00
spi-1: 11
spi-1: 00
spi-1: 7D
spi-1: 00
spi-1: 00
spi-1: 6C
spi-1: 00
spi-1: 6C
spi-1: 00
spi-1: 6F
spi-1: 00
spi-1: 57
spi-1: 00
spi-1: 6F
spi-1: 00
spi-1: 72
spi-1: 00
spi-1: 6C
spi-1: 00
spi-1: 64
spi-1: 00
spi-1: 48
spi-1: 00
spi-1: 65
spi-1: 00
spi-1: 6C
spi-1: 00
spi-1: 6C
spi-1: 00
spi-1: 6F
spi-1: 00
spi-1: 57
spi-1: 00
spi-1: 6F
spi-1: 00
spi-1: 72
spi-1: 00
spi-1: 6C
spi-1: 00
spi-1: 64
spi-1: 00
spi-1: 48
spi-1: 00
spi-1: 65
spi-1: 00
spi-1: 6C
spi-1: 00
spi-1: 6C
spi-1: 00
spi-1: 6F
spi-1: 00
spi-1: 57
spi-1: 00
spi-1: 6F
spi-1: 00
spi-1: 72
spi-1: 00
spi-1: 6C
spi-1: 00
spi-1: 64
spi-1: 00
spi-1: 48
spi-1: 00
spi-1: 65
spi-1: 00
spi-1: 6C
spi-1: 00
spi-1: 6C
spi-1: 00
spi-1: 6F
spi-1: 00
spi-1: 57
spi-1: 00
spi-1: 6F
spi-1: 00
spi-1: 72
spi-1: 00
spi-1: 6C
spi-1: 00
spi-1: 64
spi-1: 00
spi-1: 48
spi-1: 00
spi-1: 65
spi-1: 00
spi-1: 6C
spi-1: 00
spi-1: 6C
spi-1: 00
spi-1: 6F
spi-1: 00
spi-1: 57
spi-1: 00
spi-1: 6F
spi-1: 00
spi-1: 72
spi-1: 00
spi-1: 6C
spi-1: 00
spi-1: 64
spi-1: 00
spi-1: 48
spi-1: 00
spi-1: 65
spi-1: 00
spi-1: 6C
spi-1: 00
spi-1: 6C
spi-1: 00
spi-1: 6F
spi-1: 00
spi-1: 57
spi-1: 00
spi-1: 6F
spi-1: 00
spi-1: 72
spi-1: 00
spi-1: 6C
spi-1: 00
spi-1: 64
spi-1: 00
spi-1: 48
spi-1: 00
spi-1: 65
spi-1: 00
spi-1: 6C
spi-1: 00
spi-1: 6C
spi-1: 00
spi-1: 6F
spi-1: 00
spi-1: 57
spi-1: 00
spi-1: 6F
spi-1: 00
spi-1: 72
spi-1: 00
spi-1: 6C
spi-1: 00
spi-1: 64
spi-1: 00
spi-1: 48
spi-1: 00
spi-1: 65
spi-1: 00
spi-1: 6C
spi-1: 00
spi-1: 6C
spi-1: 00
spi-1: 6F
spi-1: 00
spi-1: 57
spi-1: 00
spi-1: 6F
spi-1: 00
spi-1: 72
spi-1: 00
spi-1: 6C
spi-1: 00
spi-1: 64
spi-1: 00
spi-1: 48
spi-1: 00
spi-1: 65
spi-1: 00
spi-1: 6C
spi-1: 00
spi-1: 6C
spi-1: 00
spi-1: 6F
spi-1: 00
spi-1: 57
spi-1: 00
spi-1: 6F
spi-1: 00
spi-1: 72
spi-1: 00
spi-1: 6C
spi-1: 00
spi-1: 64
spi-1: 00
spi-1: 48
spi-1: 00
spi-1: 65
spi-1: 00
spi-1: 6C
spi-1: 00
spi-1: 6C
spi-1: 00
spi-1: 6F
spi-1: 00
spi-1: 57
spi-1: 00
spi-1: 6F
spi-1: 00
spi-1: 72
spi-1: 00
spi-1: 6C
spi-1: 00
spi-1: 64
spi-1: 00
spi-1: 48
spi-1: 00
spi-1: 65
spi-1: 00
spi-1: 6C
spi-1: 00
spi-1: 6C
spi-1: 00
spi-1: 6F
spi-1: 00
spi-1: 57
spi-1: 00
spi-1: 6F
spi-1: 00
spi-1: 72
spi-1: 00
spi-1: 6C
spi-1: 00
spi-1: 64
spi-1: 00
spi-1: 48
spi-1: 00
spi-1: 65
spi-1: 00
spi-1: 6C
spi-1: 00
spi-1: 6C
spi-1: 00
spi-1: 6F
spi-1: 00
spi-1: 57
spi-1: 00
spi-1: 6F
spi-1: 00
spi-1: 72
spi-1: 00
spi-1: 6C
spi-1: 00
spi-1: 64
spi-1: 00
spi-1: 48
spi-1: 00
spi-1: 65
spi-1: 00
spi-1: 6C
spi-1: 00
spi-1: 6C
spi-1: 00
spi-1: 6F
spi-1: 00
spi-1: 57
spi-1: 00
spi-1: 6F
spi-1: 00
spi-1: 72
spi-1: 00
spi-1: 6C
spi-1: 00
spi-1: 64
spi-1: 00
spi-1: 48
spi-1: 00
spi-1: 65
spi-1: 00
spi-1: 6C
spi-1: 00
spi-1: 6C
spi-1: 00
spi-1: 6F
spi-1: 00
spi-1: 57
spi-1: 00
spi-1: 6F
spi-1: 00
spi-1: 72
spi-1: 00
spi-1: 6C
spi-1: 00
spi-1: 64
spi-1: 00
spi-1: 48
spi-1: 00
spi-1: 65
spi-1: 00
spi-1: 6C
spi-1: 00
spi-1: 6C
spi-1: 00
spi-1: 6F
spi-1: 00
spi-1: 57
spi-1: 00
spi-1: 6F
spi-1: 00
spi-1: 72
spi-1: 00
spi-1: 6C
spi-1: 00
spi-1: 64
spi-1: 00
spi-1: 48
spi-1: 00
spi-1: 65
spi-1: 00
spi-1: 6C
spi-1: 00
spi-1: 6C
spi-1: 00
spi-1: 6F
spi-1: 00
spi-1: 57
spi-1: 00
spi-1: 6F
spi-1: 00
spi-1: 72
spi-1: 00
spi-1: 6C
spi-1: 00
spi-1: 64
spi-1: 00
spi-1: 48
spi-1: 00
spi-1: 65
spi-1: 00
spi-1: 6C
spi-1: 00
spi-1: 6C
spi-1: 00
spi-1: 6F
spi-1: 00
spi-1: 57
spi-1: 00
spi-1: 6F
spi-1: 00
spi-1: 72
spi-1: 00
spi-1: 6C
spi-1: 00
spi-1: 64
spi-1: 00
spi-1: 48
spi-1: 00
spi-1: 65
spi-1: 00
spi-1: 6C
spi-1: 00
spi-1: 6C
spi-1: 00
spi-1: 6F
spi-1: 00
spi-1: 57
spi-1: 00
spi-1: 6F
spi-1: 00
spi-1: 72
spi-1: 00
spi-1: 6C
spi-1: 00
spi-1: 64
spi-1: 00
spi-1: 48
spi-1: 00
spi-1: 65
spi-1: 00
spi-1: 6C
spi-1: 00
spi-1: 6C
spi-1: 00
spi-1: 6F
spi-1: 00
spi-1: 57
spi-1: 00
spi-1: 6F
spi-1: 00
spi-1: 72
spi-1: 00
spi-1: 6C
spi-1: 00
spi-1: 64
spi-1: 00
spi-1: 48
spi-1: 00
spi-1: 65
spi-1: 00
spi-1: 6C
spi-1: 00
spi-1: 6C
spi-1: 00
spi-1: 6F
spi-1: 00
spi-1: 57
spi-1: 00
spi-1: 6F
spi-1: 00
spi-1: 72
spi-1: 00
spi-1: 6C
spi-1: 00
spi-1: 64
spi-1: 00
spi-1: 48
spi-1: 00
spi-1: 65
spi-1: 00
spi-1: 6C
spi-1: 00
spi-1: 6C
spi-1: 00
spi-1: 6F
spi-1: 00
spi-1: 57
spi-1: 00
spi-1: 6F
spi-1: 00
spi-1: 72
spi-1: 00
spi-1: 6C
spi-1: 00
spi-1: 64
spi-1: 00
spi-1: 48
spi-1: 00
spi-1: 65
spi-1: 00
spi-1: 6C
spi-1: 00
spi-1: 6C
spi-1: 00
spi-1: 6F
spi-1: 00
spi-1: 57
spi-1: 00
spi-1: 6F
spi-1: 00
spi-1: 72
spi-1: 00
spi-1: 6C
spi-1: 00
spi-1: 64
spi-1: 00
spi-1: 48
spi-1: 00
spi-1: 65
spi-1: 00
spi-1: 6C
spi-1: 00
spi-1: 6C
spi-1: 00
spi-1: 6F
spi-1: 00
spi-1: 57
spi-1: 00
spi-1: 6F
spi-1: 00
spi-1: 72
spi-1: 00
spi-1: 6C
spi-1: 00
spi-1: 64
spi-1: 00
spi-1: 48
spi-1: 00
spi-1: 65
spi-1: 00
spi-1: 6C
spi-1: 00
spi-1: 6C
spi-1: 00
spi-1: 6F
spi-1: 00
spi-1: 57
spi-1: 00
spi-1: 6F
spi-1: 00
spi-1: 72
spi-1: 00
spi-1: 6C
spi-1: 00
spi-1: 64
spi-1: 00
spi-1: 48
spi-1: 00
spi-1: 65
spi-1: 00
spi-1: 6C
spi-1: 00
spi-1: 6C
spi-1: 00
spi-1: 6F
spi-1: 00
spi-1: 57
spi-1: 00
spi-1: 6F
spi-1: 00
spi-1: 72
spi-1: 00
spi-1: 6C
spi-1: 00
spi-1: 64
spi-1: 00
spi-1: 48
spi-1: 00
spi-1: 65
spi-1: 00
spi-1: 6C
spi-1: 00
spi-1: 6C
spi-1: 00
spi-1: 6F
spi-1: 00
spi-1: 57
spi-1: 00
spi-1: 6F
spi-1: 00
spi-1: 72
spi-1: 00
spi-1: 00 00 00 00 6C 6C 6F 57 6F 72 6C 64 48 65 6C 6C 6F 57 6F 72 6C 64 48 65 6C 6C 6F 57 6F 72 6C 64 48 65 6C 6C 6F 57 6F 72 6C 64 48 65 6C 6C 6F 57 6F 72 6C 64 48 65 6C 6C 6F 57 6F 72 6C 64 48 65 6C 6C 6F 57 6F 72 6C 64 48 65 6C 6C 6F 57 6F 72 6C 64 48 65 6C 6C 6F 57 6F 72 6C 64 48 65 6C 6C 6F 57 6F 72 6C 64 48 65 6C 6C 6F 57 6F 72 6C 64 48 65 6C 6C 6F 57 6F 72 6C 64 48 65 6C 6C 6F 57 6F 72 6C 64 48 65 6C 6C 6F 57 6F 72 6C 64 48 65 6C 6C 6F 57 6F 72 6C 64 48 65 6C 6C 6F 57 6F 72 6C 64 48 65 6C 6C 6F 57 6F 72 6C 64 48 65 6C 6C 6F 57 6F 72 6C 64 48 65 6C 6C 6F 57 6F 72 6C 64 48 65 6C 6C 6F 57 6F 72 6C 64 48 65 6C 6C 6F 57 6F 72 6C 64 48 65 6C 6C 6F 57 6F 72 6C 64 48 65 6C 6C 6F 57 6F 72 6C 64 48 65 6C 6C 6F 57 6F 72 6C 64 48 65 6C 6C 6F 57 6F 72 6C 64 48 65 6C 6C 6F 57 6F 72
spi-1: 03 11 7D 00 00 00 00 00 00 00 00 00 00 00 00 00 00 00 00 00 00 00 00 00 00 00 00 00 00 00 00 00 00 00 00 00 00 00 00 00 00 00 00 00 00 00 00 00 00 00 00 00 00 00 00 00 00 00 00 00 00 00 00 00 00 00 00 00 00 00 00 00 00 00 00 00 00 00 00 00 00 00 00 00 00 00 00 00 00 00 00 00 00 00 00 00 00 00 00 00 00 00 00 00 00 00 00 00 00 00 00 00 00 00 00 00 00 00 00 00 00 00 00 00 00 00 00 00 00 00 00 00 00 00 00 00 00 00 00 00 00 00 00 00 00 00 00 00 00 00 00 00 00 00 00 00 00 00 00 00 00 00 00 00 00 00 00 00 00 00 00 00 00 00 00 00 00 00 00 00 00 00 00 00 00 00 00 00 00 00 00 00 00 00 00 00 00 00 00 00 00 00 00 00 00 00 00 00 00 00 00 00 00 00 00 00 00 00 00 00 00 00 00 00 00 00 00 00 00 00 00 00 00 00 00 00 00 00 00 00 00 00 00 00 00 00 00 00 00 00 00 00 00 00 00 00 00 00 00 00
spi-1: 00
spi-1: 03
spi-1: 00
spi-1: 11
spi-1: 00
spi-1: 7E
spi-1: 00
spi-1: 00
spi-1: 6C
spi-1: 00
spi-1: 64
spi-1: 00
spi-1: 48
spi-1: 00
spi-1: 65
spi-1: 00
spi-1: 6C
spi-1: 00
spi-1: 6C
spi-1: 00
spi-1: 6F
spi-1: 00
spi-1: 57
spi-1: 00
spi-1: 6F
spi-1: 00
spi-1: 72
spi-1: 00
spi-1: 6C
spi-1: 00
spi-1: 64
spi-1: 00
spi-1: 48
spi-1: 00
spi-1: 65
spi-1: 00
spi-1: 6C
spi-1: 00
spi-1: 6C
spi-1: 00
spi-1: 6F
spi-1: 00
spi-1: 57
spi-1: 00
spi-1: 6F
spi-1: 00
spi-1: 72
spi-1: 00
spi-1: 6C
spi-1: 00
spi-1: 64
spi-1: 00
spi-1: 48
spi-1: 00
spi-1: 65
spi-1: 00
spi-1: 6C
spi-1: 00
spi-1: 6C
spi-1: 00
spi-1: 6F
spi-1: 00
spi-1: 57
spi-1: 00
spi-1: 6F
spi-1: 00
spi-1: 72
spi-1: 00
spi-1: 6C
spi-1: 00
spi-1: 64
spi-1: 00
spi-1: 48
spi-1: 00
spi-1: 65
spi-1: 00
spi-1: 6C
spi-1: 00
spi-1: 6C
spi-1: 00
spi-1: 6F
spi-1: 00
spi-1: 57
spi-1: 00
spi-1: 6F
spi-1: 00
spi-1: 72
spi-1: 00
spi-1: 6C
spi-1: 00
spi-1: 64
spi-1: 00
spi-1: 48
spi-1: 00
spi-1: 65
spi-1: 00
spi-1: 6C
spi-1: 00
spi-1: 6C
spi-1: 00
spi-1: 6F
spi-1: 00
spi-1: 57
spi-1: 00
spi-1: 6F
spi-1: 00
spi-1: 72
spi-1: 00
spi-1: 6C
spi-1: 00
spi-1: 64
spi-1: 00
spi-1: 48
spi-1: 00
spi-1: 65
spi-1: 00
spi-1: 6C
spi-1: 00
spi-1: 6C
spi-1: 00
spi-1: 6F
spi-1: 00
spi-1: 57
spi-1: 00
spi-1: 6F
spi-1: 00
spi-1: 72
spi-1: 00
spi-1: 6C
spi-1: 00
spi-1: 64
spi-1: 00
spi-1: 48
spi-1: 00
spi-1: 65
spi-1: 00
spi-1: 6C
spi-1: 00
spi-1: 6C
spi-1: 00
spi-1: 6F
spi-1: 00
spi-1: 57
spi-1: 00
spi-1: 6F
spi-1: 00
spi-1: 72
spi-1: 00
spi-1: 6C
spi-1: 00
spi-1: 64
spi-1: 00
spi-1: 48
spi-1: 00
spi-1: 65
spi-1: 00
spi-1: 6C
spi-1: 00
spi-1: 6C
spi-1: 00
spi-1: 6F
spi-1: 00
spi-1: 57
spi-1: 00
spi-1: 6F
spi-1: 00
spi-1: 72
spi-1: 00
spi-1: 6C
spi-1: 00
spi-1: 64
spi-1: 00
spi-1: 48
spi-1: 00
spi-1: 65
spi-1: 00
spi-1: 6C
spi-1: 00
spi-1: 6C
spi-1: 00
spi-1: 6F
spi-1: 00
spi-1: 57
spi-1: 00
spi-1: 6F
spi-1: 00
spi-1: 72
spi-1: 00
spi-1: 6C
spi-1: 00
spi-1: 64
spi-1: 00
spi-1: 48
spi-1: 00
spi-1: 65
spi-1: 00
spi-1: 6C
spi-1: 00
spi-1: 6C
spi-1: 00
spi-1: 6F
spi-1: 00
spi-1: 57
spi-1: 00
spi-1: 6F
spi-1: 00
spi-1: 72
spi-1: 00
spi-1: 6C
spi-1: 00
spi-1: 64
spi-1: 00
spi-1: 48
spi-1: 00
spi-1: 65
spi-1: 00
spi-1: 6C
spi-1: 00
spi-1: 6C
spi-1: 00
spi-1: 6F
spi-1: 00
spi-1: 57
spi-1: 00
spi-1: 6F
spi-1: 00
spi-1: 72
spi-1: 00
spi-1: 6C
spi-1: 00
spi-1: 64
spi-1: 00
spi-1: 48
spi-1: 00
spi-1: 65
spi-1: 00
spi-1: 6C
spi-1: 00
spi-1: 6C
spi-1: 00
spi-1: 6F
spi-1: 00
spi-1: 57
spi-1: 00
spi-1: 6F
spi-1: 00
spi-1: 72
spi-1: 00
spi-1: 6C
spi-1: 00
spi-1: 64
spi-1: 00
spi-1: 48
spi-1: 00
spi-1: 65
spi-1: 00
spi-1: 6C
spi-1: 00
spi-1: 6C
spi-1: 00
spi-1: 6F
spi-1: 00
spi-1: 57
spi-1: 00
spi-1: 6F
spi-1: 00
spi-1: 72
spi-1: 00
spi-1: 6C
spi-1: 00
spi-1: 64
spi-1: 00
spi-1: 48
spi-1: 00
spi-1: 65
spi-1: 00
spi-1: 6C
spi-1: 00
spi-1: 6C
spi-1: 00
spi-1: 6F
spi-1: 00
spi-1: 57
spi-1: 00
spi-1: 6F
spi-1: 00
spi-1: 72
spi-1: 00
spi-1: 6C
spi-1: 00
spi-1: 64
spi-1: 00
spi-1: 48
spi-1: 00
spi-1: 65
spi-1: 00
spi-1: 6C
spi-1: 00
spi-1: 6C
spi-1: 00
spi-1: 6F
spi-1: 00
spi-1: 57
spi-1: 00
spi-1: 6F
spi-1: 00
spi-1: 72
spi-1: 00
spi-1: 6C
spi-1: 00
spi-1: 64
spi-1: 00
spi-1: 48
spi-1: 00
spi-1: 65
spi-1: 00
spi-1: 6C
spi-1: 00
spi-1: 6C
spi-1: 00
spi-1: 6F
spi-1: 00
spi-1: 57
spi-1: 00
spi-1: 6F
spi-1: 00
spi-1: 72
spi-1: 00
spi-1: 6C
spi-1: 00
spi-1: 64
spi-1: 00
spi-1: 48
spi-1: 00
spi-1: 65
spi-1: 00
spi-1: 6C
spi-1: 00
spi-1: 6C
spi-1: 00
spi-1: 6F
spi-1: 00
spi-1: 57
spi-1: 00
spi-1: 6F
spi-1: 00
spi-1: 72
spi-1: 00
spi-1: 6C
spi-1: 00
spi-1: 64
spi-1: 00
spi-1: 48
spi-1: 00
spi-1: 65
spi-1: 00
spi-1: 6C
spi-1: 00
spi-1: 6C
spi-1: 00
spi-1: 6F
spi-1: 00
spi-1: 57
spi-1: 00
spi-1: 6F
spi-1: 00
spi-1: 72
spi-1: 00
spi-1: 6C
spi-1: 00
spi-1: 64
spi-1: 00
spi-1: 48
spi-1: 00
spi-1: 65
spi-1: 00
spi-1: 6C
spi-1: 00
spi-1: 6C
spi-1: 00
spi-1: 6F
spi-1: 00
spi-1: 57
spi-1: 00
spi-1: 6F
spi-1: 00
spi-1: 72
spi-1: 00
spi-1: 6C
spi-1: 00
spi-1: 64
spi-1: 00
spi-1: 48
spi-1: 00
spi-1: 65
spi-1: 00
spi-1: 6C
spi-1: 00
spi-1: 6C
spi-1: 00
spi-1: 6F
spi-1: 00
spi-1: 57
spi-1: 00
spi-1: 6F
spi-1: 00
spi-1: 72
spi-1: 00
spi-1: 6C
spi-1: 00
spi-1: 64
spi-1: 00
spi-1: 48
spi-1: 00
spi-1: 65
spi-1: 00
spi-1: 6C
spi-1: 00
spi-1: 6C
spi-1: 00
spi-1: 6F
spi-1: 00
spi-1: 57
spi-1: 00
spi-1: 6F
spi-1: 00
spi-1: 72
spi-1: 00
spi-1: 6C
spi-1: 00
spi-1: 64
spi-1: 00
spi-1: 48
spi-1: 00
spi-1: 65
spi-1: 00
spi-1: 6C
spi-1: 00
spi-1: 6C
spi-1: 00
spi-1: 6F
spi-1: 00
spi-1: 57
spi-1: 00
spi-1: 6F
spi-1: 00
spi-1: 72
spi-1: 00
spi-1: 6C
spi-1: 00
spi-1: 64
spi-1: 00
spi-1: 48
spi-1: 00
spi-1: 65
spi-1: 00
spi-1: 6C
spi-1: 00
spi-1: 6C
spi-1: 00
spi-1: 6F
spi-1: 00
spi-1: 57
spi-1: 00
spi-1: 6F
spi-1: 00
spi-1: 72
spi-1: 00
spi-1: 6C
spi-1: 00
spi-1: 64
spi-1: 00
spi-1: 48
spi-1: 00
spi-1: 65
spi-1: 00
spi-1: 6C
spi-1: 00
spi-1: 6C
spi-1: 00
spi-1: 6F
spi-1: 00
spi-1: 57
spi-1: 00
spi-1: 6F
spi-1: 00
spi-1: 72
spi-1: 00
spi-1: 6C
spi-1: 00
spi-1: 64
spi-1: 00
spi-1: 48
spi-1: 00
spi-1: 65
spi-1: 00
spi-1: 6C
spi-1: 00
spi-1: 6C
spi-1: 00
spi-1: 6F
spi-1: 00
spi-1: 57
spi-1: 00
spi-1: 6F
spi-1: 00
spi-1: 72
spi-1: 00
spi-1: 6C
spi-1: 00
spi-1: 64
spi-1: 00
spi-1: 48
spi-1: 00
spi-1: 65
spi-1: 00
spi-1: 6C
spi-1: 00
spi-1: 6C
spi-1: 00
spi-1: 00 00 00 00 6C 64 48 65 6C 6C 6F 57 6F 72 6C 64 48 65 6C 6C 6F 57 6F 72 6C 64 48 65 6C 6C 6F 57 6F 72 6C 64 48 65 6C 6C 6F 57 6F 72 6C 64 48 65 6C 6C 6F 57 6F 72 6C 64 48 65 6C 6C 6F 57 6F 72 6C 64 48 65 6C 6C 6F 57 6F 72 6C 64 48 65 6C 6C 6F 57 6F 72 6C 64 48 65 6C 6C 6F 57 6F 72 6C 64 48 65 6C 6C 6F 57 6F 72 6C 64 48 65 6C 6C 6F 57 6F 72 6C 64 48 65 6C 6C 6F 57 6F 72 6C 64 48 65 6C 6C 6F 57 6F 72 6C 64 48 65 6C 6C 6F 57 6F 72 6C 64 48 65 6C 6C 6F 57 6F 72 6C 64 48 65 6C 6C 6F 57 6F 72 6C 64 48 65 6C 6C 6F 57 6F 72 6C 64 48 65 6C 6C 6F 57 6F 72 6C 64 48 65 6C 6C 6F 57 6F 72 6C 64 48 65 6C 6C 6F 57 6F 72 6C 64 48 65 6C 6C 6F 57 6F 72 6C 64 48 65 6C 6C 6F 57 6F 72 6C 64 48 65 6C 6C 6F 57 6F 72 6C 64 48 65 6C 6C 6F 57 6F 72 6C 64 48 65 6C 6C 6F 57 6F 72 6C 64 48 65 6C 6C
spi-1: 03 11 7E 00 00 00 00 00 00 00 00 00 00 00 00 00 00 00 00 00 00 00 00 00 00 00 00 00 00 00 00 00 00 00 00 00 00 00 00 00 00 00 00 00 00 00 00 00 00 00 00 00 00 00 00 00 00 00 00 00 00 00 00 00 00 00 00 00 00 00 00 00 00 00 00 00 00 00 00 00 00 00 00 00 00 00 00 00 00 00 00 00 00 00 00 00 00 00 00 00 00 00 00 00 00 00 00 00 00 00 00 00 00 00 00 00 00 00 00 00 00 00 00 00 00 00 00 00 00 00 00 00 00 00 00 00 00 00 00 00 00 00 00 00 00 00 00 00 00 00 00 00 00 00 00 00 00 00 00 00 00 00 00 00 00 00 00 00 00 00 00 00 00 00 00 00 00 00 00 00 00 00 00 00 00 00 00 00 00 00 00 00 00 00 00 00 00 00 00 00 00 00 00 00 00 00 00 00 00 00 00 00 00 00 00 00 00 00 00 00 00 00 00 00 00 00 00 00 00 00 00 00 00 00 00 00 00 00 00 00 00 00 00 00 00 00 00 00 00 00 00 00 00 00 00 00 00 00 00 00
spi-1: 00
spi-1: 03
spi-1: 00
spi-1: 11
spi-1: 00
spi-1: 7F
spi-1: 00
spi-1: 00
spi-1: 6F
spi-1: 00
spi-1: 57
spi-1: 00
spi-1: 6F
spi-1: 00
spi-1: 72
spi-1: 00
spi-1: 6C
spi-1: 00
spi-1: 64
spi-1: 00
spi-1: 48
spi-1: 00
spi-1: 65
spi-1: 00
spi-1: 6C
spi-1: 00
spi-1: 6C
spi-1: 00
spi-1: 6F
spi-1: 00
spi-1: 57
spi-1: 00
spi-1: 6F
spi-1: 00
spi-1: 72
spi-1: 00
spi-1: 6C
spi-1: 00
spi-1: 64
spi-1: 00
spi-1: 48
spi-1: 00
spi-1: 65
spi-1: 00
spi-1: 6C
spi-1: 00
spi-1: 6C
spi-1: 00
spi-1: 6F
spi-1: 00
spi-1: 57
spi-1: 00
spi-1: 6F
spi-1: 00
spi-1: 72
spi-1: 00
spi-1: 6C
spi-1: 00
spi-1: 64
spi-1: 00
spi-1: 48
spi-1: 00
spi-1: 65
spi-1: 00
spi-1: 6C
spi-1: 00
spi-1: 6C
spi-1: 00
spi-1: 6F
spi-1: 00
spi-1: 57
spi-1: 00
spi-1: 6F
spi-1: 00
spi-1: 72
spi-1: 00
spi-1: 6C
spi-1: 00
spi-1: 64
spi-1: 00
spi-1: 48
spi-1: 00
spi-1: 65
spi-1: 00
spi-1: 6C
spi-1: 00
spi-1: 6C
spi-1: 00
spi-1: 6F
spi-1: 00
spi-1: 57
spi-1: 00
spi-1: 6F
spi-1: 00
spi-1: 72
spi-1: 00
spi-1: 6C
spi-1: 00
spi-1: 64
spi-1: 00
spi-1: 48
spi-1: 00
spi-1: 65
spi-1: 00
spi-1: 6C
spi-1: 00
spi-1: 6C
spi-1: 00
spi-1: 6F
spi-1: 00
spi-1: 57
spi-1: 00
spi-1: 6F
spi-1: 00
spi-1: 72
spi-1: 00
spi-1: 6C
spi-1: 00
spi-1: 64
spi-1: 00
spi-1: 48
spi-1: 00
spi-1: 65
spi-1: 00
spi-1: 6C
spi-1: 00
spi-1: 6C
spi-1: 00
spi-1: 6F
spi-1: 00
spi-1: 57
spi-1: 00
spi-1: 6F
spi-1: 00
spi-1: 72
spi-1: 00
spi-1: 6C
spi-1: 00
spi-1: 64
spi-1: 00
spi-1: 48
spi-1: 00
spi-1: 65
spi-1: 00
spi-1: 6C
spi-1: 00
spi-1: 6C
spi-1: 00
spi-1: 6F
spi-1: 00
spi-1: 57
spi-1: 00
spi-1: 6F
spi-1: 00
spi-1: 72
spi-1: 00
spi-1: 6C
spi-1: 00
spi-1: 64
spi-1: 00
spi-1: 48
spi-1: 00
spi-1: 65
spi-1: 00
spi-1: 6C
spi-1: 00
spi-1: 6C
spi-1: 00
spi-1: 6F
spi-1: 00
spi-1: 57
spi-1: 00
spi-1: 6F
spi-1: 00
spi-1: 72
spi-1: 00
spi-1: 6C
spi-1: 00
spi-1: 64
spi-1: 00
spi-1: 48
spi-1: 00
spi-1: 65
spi-1: 00
spi-1: 6C
spi-1: 00
spi-1: 6C
spi-1: 00
spi-1: 6F
spi-1: 00
spi-1: 57
spi-1: 00
spi-1: 6F
spi-1: 00
spi-1: 72
spi-1: 00
spi-1: 6C
spi-1: 00
spi-1: 64
spi-1: 00
spi-1: 48
spi-1: 00
spi-1: 65
spi-1: 00
spi-1: 6C
spi-1: 00
spi-1: 6C
spi-1: 00
spi-1: 6F
spi-1: 00
spi-1: 57
spi-1: 00
spi-1: 6F
spi-1: 00
spi-1: 72
spi-1: 00
spi-1: 6C
spi-1: 00
spi-1: 64
spi-1: 00
spi-1: 48
spi-1: 00
spi-1: 65
spi-1: 00
spi-1: 6C
spi-1: 00
spi-1: 6C
spi-1: 00
spi-1: 6F
spi-1: 00
spi-1: 57
spi-1: 00
spi-1: 6F
spi-1: 00
spi-1: 72
spi-1: 00
spi-1: 6C
spi-1: 00
spi-1: 64
spi-1: 00
spi-1: 48
spi-1: 00
spi-1: 65
spi-1: 00
spi-1: 6C
spi-1: 00
spi-1: 6C
spi-1: 00
spi-1: 6F
spi-1: 00
spi-1: 57
spi-1: 00
spi-1: 6F
spi-1: 00
spi-1: 72
spi-1: 00
spi-1: 6C
spi-1: 00
spi-1: 64
spi-1: 00
spi-1: 48
spi-1: 00
spi-1: 65
spi-1: 00
spi-1: 6C
spi-1: 00
spi-1: 6C
spi-1: 00
spi-1: 6F
spi-1: 00
spi-1: 57
spi-1: 00
spi-1: 6F
spi-1: 00
spi-1: 72
spi-1: 00
spi-1: 6C
spi-1: 00
spi-1: 64
spi-1: 00
spi-1: 48
spi-1: 00
spi-1: 65
spi-1: 00
spi-1: 6C
spi-1: 00
spi-1: 6C
spi-1: 00
spi-1: 6F
spi-1: 00
spi-1: 57
spi-1: 00
spi-1: 6F
spi-1: 00
spi-1: 72
spi-1: 00
spi-1: 6C
spi-1: 00
spi-1: 64
spi-1: 00
spi-1: 48
spi-1: 00
spi-1: 65
spi-1: 00
spi-1: 6C
spi-1: 00
spi-1: 6C
spi-1: 00
spi-1: 6F
spi-1: 00
spi-1: 57
spi-1: 00
spi-1: 6F
spi-1: 00
spi-1: 72
spi-1: 00
spi-1: 6C
spi-1: 00
spi-1: 64
spi-1: 00
spi-1: 48
spi-1: 00
spi-1: 65
spi-1: 00
spi-1: 6C
spi-1: 00
spi-1: 6C
spi-1: 00
spi-1: 6F
spi-1: 00
spi-1: 57
spi-1: 00
spi-1: 6F
spi-1: 00
spi-1: 72
spi-1: 00
spi-1: 6C
spi-1: 00
spi-1: 64
spi-1: 00
spi-1: 48
spi-1: 00
spi-1: 65
spi-1: 00
spi-1: 6C
spi-1: 00
spi-1: 6C
spi-1: 00
spi-1: 6F
spi-1: 00
spi-1: 57
spi-1: 00
spi-1: 6F
spi-1: 00
spi-1: 72
spi-1: 00
spi-1: 6C
spi-1: 00
spi-1: 64
spi-1: 00
spi-1: 48
spi-1: 00
spi-1: 65
spi-1: 00
spi-1: 6C
spi-1: 00
spi-1: 6C
spi-1: 00
spi-1: 6F
spi-1: 00
spi-1: 57
spi-1: 00
spi-1: 6F
spi-1: 00
spi-1: 72
spi-1: 00
spi-1: 6C
spi-1: 00
spi-1: 64
spi-1: 00
spi-1: 48
spi-1: 00
spi-1: 65
spi-1: 00
spi-1: 6C
spi-1: 00
spi-1: 6C
spi-1: 00
spi-1: 6F
spi-1: 00
spi-1: 57
spi-1: 00
spi-1: 6F
spi-1: 00
spi-1: 72
spi-1: 00
spi-1: 6C
spi-1: 00
spi-1: 64
spi-1: 00
spi-1: 48
spi-1: 00
spi-1: 65
spi-1: 00
spi-1: 6C
spi-1: 00
spi-1: 6C
spi-1: 00
spi-1: 6F
spi-1: 00
spi-1: 57
spi-1: 00
spi-1: 6F
spi-1: 00
spi-1: 72
spi-1: 00
spi-1: 6C
spi-1: 00
spi-1: 64
spi-1: 00
spi-1: 48
spi-1: 00
spi-1: 65
spi-1: 00
spi-1: 6C
spi-1: 00
spi-1: 6C
spi-1: 00
spi-1: 6F
spi-1: 00
spi-1: 57
spi-1: 00
spi-1: 6F
spi-1: 00
spi-1: 72
spi-1: 00
spi-1: 6C
spi-1: 00
spi-1: 64
spi-1: 00
spi-1: 48
spi-1: 00
spi-1: 65
spi-1: 00
spi-1: 6C
spi-1: 00
spi-1: 6C
spi-1: 00
spi-1: 6F
spi-1: 00
spi-1: 57
spi-1: 00
spi-1: 6F
spi-1: 00
spi-1: 72
spi-1: 00
spi-1: 6C
spi-1: 00
spi-1: 64
spi-1: 00
spi-1: 48
spi-1: 00
spi-1: 65
spi-1: 00
spi-1: 6C
spi-1: 00
